  can0  0D040004   [4]  00 FF FF FF
  can0  0D110004   [7]  00 01 00 01 00 00 00
  can0  0DCA0004   [2]  00 FF
  can0  0D040004   [4]  00 FF FF FF
  can0  0D110004   [7]  00 00 00 00 00 00 00
  can0  0DCA0004   [2]  00 FF
  can0  0D040004   [4]  00 FF FF FF
  can0  0D110004   [7]  00 01 00 01 00 00 00
  can0  0DCA0004   [2]  00 FF
  can0  0D040004   [4]  00 FF FF FF
  can0  0D110004   [7]  00 01 00 01 00 00 00
  can0  0DCA0004   [2]  00 FF
  can0  0D000001   [3]  01 00 97
  can0  0D000004   [3]  01 00 08
  can0  0D010004   [8]  52 45 56 32 2E 33 00 00
  can0  0DCB0004   [8]  20 00 00 00 00 13 FF 03
  can0  0D070004   [5]  00 23 00 00 1E
  can0  0D040004   [4]  00 FF FF FF
  can0  0D110004   [7]  00 00 00 01 00 01 00
  can0  0DCA0004   [2]  00 FF
  can0  0D040004   [4]  00 FF FF FF
  can0  0D110004   [7]  00 01 00 01 00 01 00
  can0  0DCA0004   [2]  00 FF
  can0  0D040004   [4]  00 FF FF FF
  can0  0D110004   [7]  00 00 00 01 00 00 00
  can0  0DCA0004   [2]  00 FF
  can0  0D040004   [4]  00 FF FF FF
  can0  0D110004   [7]  00 01 00 01 00 00 00
  can0  0DCA0004   [2]  00 FF
  can0  0D040004   [4]  00 FF FF FF
  can0  0D110004   [7]  00 00 00 00 00 00 00
  can0  0DCA0004   [2]  00 FF
  can0  0D040004   [4]  00 FF FF FF
  can0  0D110004   [7]  00 01 00 01 00 01 00
  can0  0DCA0004   [2]  00 FF
  can0  0D040004   [4]  00 FF FF FF
  can0  0D110004   [7]  00 00 00 01 00 00 00
  can0  0DCA0004   [2]  00 FF
  can0  0D040004   [4]  00 FF FF FF
  can0  0D110004   [7]  00 00 00 01 00 00 00
  can0  0DCA0004   [2]  00 FF
  can0  0D040004   [4]  00 FF FF FF
  can0  0D110004   [7]  00 01 00 01 00 00 00
  can0  0DCA0004   [2]  00 FF
  can0  0D040004   [4]  00 FF FF FF
  can0  0D110004   [7]  00 01 00 01 00 01 00
  can0  0DCA0004   [2]  00 FF
  can0  0D000001   [3]  01 00 97
  can0  0D000004   [3]  01 00 08
  can0  0D010004   [8]  52 45 56 32 2E 33 00 00
  can0  0DCB0004   [8]  20 00 00 00 00 13 FF 03
  can0  0D070004   [5]  00 23 00 00 1E
  can0  0D040004   [4]  00 FF FF FF
  can0  0D110004   [7]  00 01 00 00 00 00 00
  can0  0DCA0004   [2]  00 FF
  can0  0D0A04FF   [5]  04 00 22 F1 00
  can0  0D040004   [4]  00 FF FF FF
  can0  0D110004   [7]  00 00 00 01 00 00 00
  can0  0DCA0004   [2]  00 FF
  can0  0DC90001   [1]  13
  can0  0D0AFF04   [8]  08 00 62 F1 00 08 15 B1
  can0  0D080001   [5]  03 F7 03 F8 01
  can0  0D0A04FF   [8]  10 0A 00 22 F2 00 F2 02
  can0  0D0AFF04   [3]  30 00 00
  can0  0D0A04FF   [5]  21 F2 10 F2 11
  can0  0D040004   [4]  00 FF FF FF
  can0  0D110004   [7]  00 01 00 01 00 00 00
  can0  0DCA0004   [2]  00 FF
  can0  0D040004   [4]  00 FF FF FF
  can0  0D110004   [7]  00 01 00 01 00 00 00
  can0  0DCA0004   [2]  00 FF
  can0  0D0AFF04   [8]  10 19 00 62 F2 00 00 00
  can0  0D0A04FF   [3]  30 23 00
  can0  0D0AFF04   [8]  21 7F 43 F2 02 00 00 00
  can0  0D0AFF04   [8]  22 00 F2 10 00 00 00 00
  can0  0D0AFF04   [8]  23 F2 11 00 00 00 00 00
  can0  0D0A04FF   [8]  10 0A 00 22 F2 12 F2 20
  can0  0D0AFF04   [3]  30 00 00
  can0  0D040004   [4]  00 FF FF FF
  can0  0D110004   [7]  00 01 00 01 00 00 00
  can0  0DCA0004   [2]  00 FF
  can0  0D0A04FF   [5]  21 F4 00 F4 01
  can0  0D040004   [4]  00 FF FF FF
  can0  0D110004   [7]  00 00 00 01 00 00 00
  can0  0DCA0004   [2]  00 FF
  can0  0D040004   [4]  00 FF FF FF
  can0  0D110004   [7]  00 01 00 01 00 01 00
  can0  0DCA0004   [2]  00 FF
  can0  0D0AFF04   [8]  10 14 00 62 F2 12 00 00
  can0  0D0A04FF   [3]  30 23 00
  can0  0D0AFF04   [8]  21 F2 20 3C 00 00 00 F4
  can0  0D0AFF04   [8]  22 00 00 00 00 00 F4 01
  can0  0D0AFF04   [8]  23 01 00 00 00 00 00 00
  can0  0D040004   [4]  00 FF FF FF
  can0  0D110004   [7]  00 01 00 01 00 00 00
  can0  0DCA0004   [2]  00 FF
  can0  0D040004   [4]  00 FF FF FF
  can0  0D110004   [7]  00 01 00 01 00 01 00
  can0  0DCA0004   [2]  00 FF
  can0  0D000001   [3]  01 00 97
  can0  0D000004   [3]  01 00 08
  can0  0D010004   [8]  52 45 56 32 2E 33 00 00
  can0  0DCB0004   [8]  21 00 00 00 00 13 FF 03
  can0  0D040004   [4]  00 FF FF FF
  can0  0D110004   [7]  00 00 00 00 00 00 00
  can0  0DCA0004   [2]  00 FF
  can0  0D070004   [5]  00 23 00 00 1E
  can0  0D040004   [4]  00 FF FF FF
  can0  0D110004   [7]  00 01 00 01 00 00 00
  can0  0DCA0004   [2]  00 FF
  can0  0D010001   [8]  50 65 74 72 65 6C 20 33
  can0  0D040004   [4]  00 FF FF FF
  can0  0D110004   [7]  00 00 00 01 00 00 00
  can0  0DCA0004   [2]  00 FF
  can0  0D040004   [4]  00 FF FF FF
  can0  0D110004   [7]  00 01 00 01 00 00 00
  can0  0DCA0004   [2]  00 FF
  can0  0D040004   [4]  00 FF FF FF
  can0  0D110004   [7]  00 00 00 01 00 00 00
  can0  0DCA0004   [2]  00 FF