
 (001.021030)  can0  0D0A0401   [5]  04 00 22 91 00
 (001.023558)  can0  0D0A0104   [8]  05 00 62 91 00 05 00 00
 
 (001.112246)  can0  0D0A0401   [5]  04 00 22 91 10
 (001.114928)  can0  0D0A0104   [8]  10 12 00 62 91 10 46 57
 (001.121909)  can0  0D0A04FF   [3]  30 23 00
 (001.123404)  can0  0D0A0104   [8]  21 20 43 6F 6D 6D 69 74
 (001.124537)  can0  0D0A0104   [8]  22 00 01 00 01 01 00 00

 (001.211996)  can0  0D0A0401   [5]  04 00 22 91 30
 (001.214464)  can0  0D0A0104   [8]  10 14 00 62 91 30 00 00
 (001.221572)  can0  0D0A04FF   [3]  30 23 00
 (001.222986)  can0  0D0A0104   [8]  21 00 00 00 00 00 01 00
 (001.224299)  can0  0D0A0104   [8]  22 00 00 00 00 00 00 00

 (001.311612)  can0  0D0A0401   [5]  04 00 22 91 50
 (001.314151)  can0  0D0A0104   [8]  10 12 00 62 91 50 64 62
 (001.321395)  can0  0D0A04FF   [3]  30 23 00
 (001.322694)  can0  0D0A0104   [8]  21 30 66 38 63 31 2D 64
 (001.323826)  can0  0D0A0104   [8]  22 69 72 74 79 00 00 00
 
 (001.411205)  can0  0D0A0401   [5]  04 00 22 91 11
 (001.413803)  can0  0D0A0104   [8]  10 0F 00 62 91 11 43 6F
 (001.421682)  can0  0D0A04FF   [3]  30 23 00
 (001.423079)  can0  0D0A0104   [8]  21 6E 66 69 67 20 31 00
 (001.424316)  can0  0D0A0104   [8]  22 00 01 00 00 00 00 00
 
 (001.511554)  can0  0D0A0401   [5]  04 00 22 91 31
 (001.514475)  can0  0D0A0104   [8]  10 14 00 62 91 31 00 00
 (001.520384)  can0  0D0A04FF   [3]  30 23 00
 (001.521847)  can0  0D0A0104   [8]  21 00 00 00 00 00 FF 00
 (001.522993)  can0  0D0A0104   [8]  22 00 00 00 00 00 00 0A
 
 (001.610342)  can0  0D0A0401   [5]  04 00 22 91 6A
 
 (001.612976)  can0  0D0A0104   [8]  04 00 7F 22 31 00 00 00
 
 (001.710133)  can0  0D0A0401   [5]  04 00 22 91 12
 (001.712732)  can0  0D0A0104   [8]  10 0F 00 62 91 12 43 6F
 (001.719785)  can0  0D0A04FF   [3]  30 23 00
 (001.721178)  can0  0D0A0104   [8]  21 6E 66 69 67 20 32 00
 (001.722395)  can0  0D0A0104   [8]  22 00 01 00 00 00 00 00
 
 (001.809758)  can0  0D0A0401   [5]  04 00 22 91 32
 (001.812440)  can0  0D0A0104   [8]  10 14 00 62 91 32 00 00
 (001.819413)  can0  0D0A04FF   [3]  30 23 00
 (001.820890)  can0  0D0A0104   [8]  21 00 00 00 00 00 FF 00
 (001.822083)  can0  0D0A0104   [8]  22 00 00 00 00 00 00 15
 
 (001.909394)  can0  0D0A0401   [5]  04 00 22 91 85
 
 (001.912160)  can0  0D0A0104   [8]  04 00 7F 22 31 00 00 00
 
 (002.010134)  can0  0D0A0401   [5]  04 00 22 91 13
 (002.012470)  can0  0D0A0104   [8]  10 0F 00 62 91 13 43 6F
 (002.018604)  can0  0D0A04FF   [3]  30 23 00
 (002.019981)  can0  0D0A0104   [8]  21 6E 66 69 67 20 33 00
 (002.021200)  can0  0D0A0104   [8]  22 00 01 00 00 00 00 00
 
 (002.108693)  can0  0D0A0401   [5]  04 00 22 91 33
 (002.111348)  can0  0D0A0104   [8]  10 14 00 62 91 33 00 00
 (002.118355)  can0  0D0A04FF   [3]  30 23 00
 (002.119848)  can0  0D0A0104   [8]  21 00 00 00 00 00 FF 00
 (002.121108)  can0  0D0A0104   [8]  22 00 00 00 00 00 00 B1
 
 (002.208376)  can0  0D0A0401   [5]  04 00 22 92 31
 
 (002.210921)  can0  0D0A0104   [8]  04 00 7F 22 31 00 00 00
 
 (002.308030)  can0  0D0A0401   [5]  04 00 22 91 14
 (002.310614)  can0  0D0A0104   [8]  10 0F 00 62 91 14 43 6F
 (002.317663)  can0  0D0A04FF   [3]  30 23 00
 (002.319070)  can0  0D0A0104   [8]  21 6E 66 69 67 20 34 00
 (002.320207)  can0  0D0A0104   [8]  22 00 01 00 00 00 00 00
 
 (002.407636)  can0  0D0A0401   [5]  04 00 22 91 34
 (002.410294)  can0  0D0A0104   [8]  10 14 00 62 91 34 00 00
 (002.417216)  can0  0D0A04FF   [3]  30 23 00
 (002.418641)  can0  0D0A0104   [8]  21 00 00 00 00 00 FF 00
 (002.419952)  can0  0D0A0104   [8]  22 00 00 00 00 00 00 02
 
 (002.508318)  can0  0D0A0401   [5]  04 00 22 91 92
 
 (002.510881)  can0  0D0A0104   [8]  04 00 7F 22 31 00 00 00